Freq.	V(n003)
1.00000000000000e+000	8.72097176389268e-018,2.95309709554024e-009
1.01099099099099e+002	8.91379760342543e-014,2.98556660499390e-007
2.01198198198198e+002	3.53042303604742e-013,5.94167309966606e-007
3.01297297297297e+002	7.91746758980726e-013,8.89792062031849e-007
4.01396396396396e+002	1.40529299541767e-012,1.18543793434557e-006
5.01495495495495e+002	2.19373927157698e-012,1.48111194622938e-006
6.01594594594595e+002	3.15716046196174e-012,1.77682111923165e-006
7.01693693693694e+002	4.29564807009864e-012,2.07257247768357e-006
8.01792792792793e+002	5.60931024496579e-012,2.36837304925556e-006
9.01891891891892e+002	7.09827180018991e-012,2.66422986551432e-006
1.00199099099099e+003	8.76267423636372e-012,2.96014996248050e-006
1.10209009009009e+003	1.06026757661524e-011,3.25614038118710e-006
1.20218918918919e+003	1.26184513426298e-011,3.55220816823873e-006
1.30228828828829e+003	1.48101926904327e-011,3.84836037637176e-006
1.40238738738739e+003	1.71781083399343e-011,4.14460406501554e-006
1.50248648648649e+003	1.97224236645723e-011,4.44094630085468e-006
1.60258558558559e+003	2.24433809210701e-011,4.73739415839259e-006
1.70268468468468e+003	2.53412392926820e-011,5.03395472051630e-006
1.80278378378378e+003	2.84162749356671e-011,5.33063507906267e-006
1.90288288288288e+003	3.16687810286195e-011,5.62744233538611e-006
2.00298198198198e+003	3.50990678249639e-011,5.92438360092789e-006
2.10308108108108e+003	3.87074627086323e-011,6.22146599778714e-006
2.20318018018018e+003	4.24943102527102e-011,6.51869665929360e-006
2.30327927927928e+003	4.64599722813235e-011,6.81608273058232e-006
2.40337837837838e+003	5.06048279345689e-011,7.11363136917024e-006
2.50347747747748e+003	5.49292737367361e-011,7.41134974553495e-006
2.60357657657658e+003	5.94337236676937e-011,7.70924504369558e-006
2.70367567567567e+003	6.41186092372760e-011,8.00732446179590e-006
2.80377477477477e+003	6.89843795633454e-011,8.30559521268993e-006
2.90387387387387e+003	7.40315014525619e-011,8.60406452452994e-006
3.00397297297297e+003	7.92604594849440e-011,8.90273964135702e-006
3.10407207207207e+003	8.46717561013512e-011,9.20162782369440e-006
3.20417117117117e+003	9.02659116945305e-011,9.50073634914343e-006
3.30427027027027e+003	9.60434647034343e-011,9.80007251298266e-006
3.40436936936937e+003	1.02004971710921e-010,1.00996436287696e-005
3.50446846846847e+003	1.08151007544898e-010,1.03994570289460e-005
3.60456756756757e+003	1.14482165382920e-010,1.06995200654459e-005
3.70466666666666e+003	1.20999056860201e-010,1.09998401103071e-005
3.80476576576576e+003	1.27702312181296e-010,1.13004245562866e-005
3.90486486486486e+003	1.34592580235102e-010,1.16012808174785e-005
4.00496396396396e+003	1.41670528713651e-010,1.19024163299367e-005
4.10506306306306e+003	1.48936844234390e-010,1.22038385523003e-005
4.20516216216216e+003	1.56392232466221e-010,1.25055549664239e-005
4.30526126126126e+003	1.64037418259075e-010,1.28075730780110e-005
4.40536036036036e+003	1.71873145777430e-010,1.31099004172519e-005
4.50545945945946e+003	1.79900178637455e-010,1.34125445394657e-005
4.60555855855856e+003	1.88119300047965e-010,1.37155130257470e-005
4.70565765765766e+003	1.96531312955382e-010,1.40188134836165e-005
4.80575675675676e+003	2.05137040192426e-010,1.43224535476762e-005
4.90585585585586e+003	2.13937324630920e-010,1.46264408802700e-005
5.00595495495496e+003	2.22933029338429e-010,1.49307831721482e-005
5.10605405405406e+003	2.32125037739078e-010,1.52354881431374e-005
5.20615315315316e+003	2.41514253778440e-010,1.55405635428158e-005
5.30625225225225e+003	2.51101602092558e-010,1.58460171511926e-005
5.40635135135135e+003	2.60888028181119e-010,1.61518567793940e-005
5.50645045045045e+003	2.70874498585072e-010,1.64580902703540e-005
5.60654954954955e+003	2.81062001068272e-010,1.67647254995104e-005
5.70664864864865e+003	2.91451544803761e-010,1.70717703755075e-005
5.80674774774775e+003	3.02044160564352e-010,1.73792328409039e-005
5.90684684684685e+003	3.12840900917729e-010,1.76871208728866e-005
6.00694594594595e+003	3.23842840426100e-010,1.79954424839907e-005
6.10704504504505e+003	3.35051075850436e-010,1.83042057228266e-005
6.20714414414415e+003	3.46466726359520e-010,1.86134186748122e-005
6.30724324324325e+003	3.58090933743546e-010,1.89230894629123e-005
6.40734234234235e+003	3.69924862632722e-010,1.92332262483850e-005
6.50744144144145e+003	3.81969700720612e-010,1.95438372315346e-005
6.60754054054055e+003	3.94226658992641e-010,1.98549306524712e-005
6.70763963963965e+003	4.06696971959392e-010,2.01665147918781e-005
6.80773873873875e+003	4.19381897895189e-010,2.04785979717863e-005
6.90783783783785e+003	4.32282719081785e-010,2.07911885563560e-005
7.00793693693695e+003	4.45400742057441e-010,2.11042949526667e-005
7.10803603603605e+003	4.58737297871160e-010,2.14179256115139e-005
7.20813513513515e+003	4.72293742342550e-010,2.17320890282149e-005
7.30823423423424e+003	4.86071456327100e-010,2.20467937434219e-005
7.40833333333334e+003	5.00071845987100e-010,2.23620483439440e-005
7.50843243243244e+003	5.14296343068274e-010,2.26778614635771e-005
7.60853153153154e+003	5.28746405182154e-010,2.29942417839429e-005
7.70863063063064e+003	5.43423516094464e-010,2.33111980353367e-005
7.80872972972974e+003	5.58329186019307e-010,2.36287389975838e-005
7.90882882882884e+003	5.73464951919605e-010,2.39468735009057e-005
8.00892792792794e+003	5.88832377813632e-010,2.42656104267952e-005
8.10902702702704e+003	6.04433055087872e-010,2.45849587089011e-005
8.20912612612614e+003	6.20268602816267e-010,2.49049273339232e-005
8.30922522522524e+003	6.36340668085963e-010,2.52255253425164e-005
8.40932432432434e+003	6.52650926329700e-010,2.55467618302059e-005
8.50942342342344e+003	6.69201081664897e-010,2.58686459483121e-005
8.60952252252254e+003	6.85992867239644e-010,2.61911869048860e-005
8.70962162162164e+003	7.03028045585562e-010,2.65143939656564e-005
8.80972072072074e+003	7.20308408977889e-010,2.68382764549866e-005
8.90981981981984e+003	7.37835779802705e-010,2.71628437568435e-005
9.00991891891893e+003	7.55612010931479e-010,2.74881053157777e-005
9.11001801801803e+003	7.73638986103199e-010,2.78140706379153e-005
9.21011711711713e+003	7.91918620314013e-010,2.81407492919613e-005
9.31021621621623e+003	8.10452860214660e-010,2.84681509102159e-005
9.41031531531533e+003	8.29243684515838e-010,2.87962851896026e-005
9.51041441441443e+003	8.48293104401519e-010,2.91251618927085e-005
9.61051351351353e+003	8.67603163950600e-010,2.94547908488386e-005
9.71061261261263e+003	8.87175940566663e-010,2.97851819550823e-005
9.81071171171173e+003	9.07013545416522e-010,3.01163451773932e-005
9.91081081081083e+003	9.27118123877126e-010,3.04482905516836e-005
1.00109099099099e+004	9.47491855991564e-010,3.07810281849315e-005
1.01110090090090e+004	9.68136956933807e-010,3.11145682563026e-005
1.02111081081081e+004	9.89055677482747e-010,3.14489210182866e-005
1.03112072072072e+004	1.01025030450559e-009,3.17840967978480e-005
1.04113063063063e+004	1.03172316145060e-009,3.21201059975923e-005
1.05114054054054e+004	1.05347660884973e-009,3.24569590969469e-005
1.06115045045045e+004	1.07551304483100e-009,3.27946666533580e-005
1.07116036036036e+004	1.09783490564099e-009,3.31332393035037e-005
1.08117027027027e+004	1.12044466617759e-009,3.34726877645222e-005
1.09118018018018e+004	1.14334484053330e-009,3.38130228352578e-005
1.10119009009009e+004	1.16653798254904e-009,3.41542553975229e-005
1.11120000000000e+004	1.19002668637904e-009,3.44963964173774e-005
1.12120990990991e+004	1.21381358706670e-009,3.48394569464253e-005
1.13121981981982e+004	1.23790136113184e-009,3.51834481231302e-005
1.14122972972973e+004	1.26229272716952e-009,3.55283811741471e-005
1.15123963963964e+004	1.28699044646053e-009,3.58742674156746e-005
1.16124954954955e+004	1.31199732359410e-009,3.62211182548248e-005
1.17125945945946e+004	1.33731620710267e-009,3.65689451910131e-005
1.18126936936937e+004	1.36294999010940e-009,3.69177598173668e-005
1.19127927927928e+004	1.38890161098818e-009,3.72675738221548e-005
1.20128918918919e+004	1.41517405403701e-009,3.76183989902370e-005
1.21129909909910e+004	1.44177035016436e-009,3.79702472045341e-005
1.22130900900901e+004	1.46869357758937e-009,3.83231304475200e-005
1.23131891891892e+004	1.49594686255571e-009,3.86770608027341e-005
1.24132882882883e+004	1.52353338005977e-009,3.90320504563170e-005
1.25133873873874e+004	1.55145635459319e-009,3.93881116985675e-005
1.26134864864865e+004	1.57971906090014e-009,3.97452569255238e-005
1.27135855855856e+004	1.60832482474969e-009,4.01034986405666e-005
1.28136846846847e+004	1.63727702372362e-009,4.04628494560475e-005
1.29137837837838e+004	1.66657908801980e-009,4.08233220949399e-005
1.30138828828829e+004	1.69623450127171e-009,4.11849293925165e-005
1.31139819819820e+004	1.72624680138433e-009,4.15476842980509e-005
1.32140810810811e+004	1.75661958138681e-009,4.19115998765448e-005
1.33141801801802e+004	1.78735649030208e-009,4.22766893104823e-005
1.34142792792793e+004	1.81846123403406e-009,4.26429659016102e-005
1.35143783783784e+004	1.84993757627271e-009,4.30104430727459e-005
1.36144774774775e+004	1.88178933941726e-009,4.33791343696129e-005
1.37145765765766e+004	1.91402040551808e-009,4.37490534627052e-005
1.38146756756757e+004	1.94663471723760e-009,4.41202141491797e-005
1.39147747747748e+004	1.97963627883067e-009,4.44926303547793e-005
1.40148738738739e+004	2.01302915714479e-009,4.48663161357846e-005
1.41149729729730e+004	2.04681748264073e-009,4.52412856809982e-005
1.42150720720721e+004	2.08100545043384e-009,4.56175533137584e-005
1.43151711711712e+004	2.11559732135661e-009,4.59951334939860e-005
1.44152702702703e+004	2.15059742304296e-009,4.63740408202635e-005
1.45153693693694e+004	2.18601015103479e-009,4.67542900319472e-005
1.46154684684685e+004	2.22183996991100e-009,4.71358960113136e-005
1.47155675675676e+004	2.25809141444005e-009,4.75188737857400e-005
1.48156666666667e+004	2.29476909075593e-009,4.79032385299209e-005
1.49157657657658e+004	2.33187767755861e-009,4.82890055681196e-005
1.50158648648649e+004	2.36942192733921e-009,4.86761903764576e-005
1.51159639639640e+004	2.40740666763058e-009,4.90648085852406e-005
1.52160630630631e+004	2.44583680228387e-009,4.94548759813229e-005
1.53161621621622e+004	2.48471731277162e-009,4.98464085105115e-005
1.54162612612613e+004	2.52405325951813e-009,5.02394222800089e-005
1.55163603603604e+004	2.56384978325752e-009,5.06339335608978e-005
1.56164594594595e+004	2.60411210642019e-009,5.10299587906660e-005
1.57165585585586e+004	2.64484553454872e-009,5.14275145757750e-005
1.58166576576577e+004	2.68605545774312e-009,5.18266176942703e-005
1.59167567567568e+004	2.72774735213697e-009,5.22272850984373e-005
1.60168558558559e+004	2.76992678140439e-009,5.26295339175013e-005
1.61169549549550e+004	2.81259939829938e-009,5.30333814603736e-005
1.62170540540541e+004	2.85577094622752e-009,5.34388452184447e-005
1.63171531531532e+004	2.89944726085125e-009,5.38459428684254e-005
1.64172522522523e+004	2.94363427172947e-009,5.42546922752366e-005
1.65173513513514e+004	2.98833800399229e-009,5.46651114949493e-005
1.66174504504505e+004	3.03356458005145e-009,5.50772187777755e-005
1.67175495495496e+004	3.07932022134788e-009,5.54910325711110e-005
1.68176486486487e+004	3.12561125013668e-009,5.59065715226317e-005
1.69177477477478e+004	3.17244409131089e-009,5.63238544834437e-005
1.70178468468469e+004	3.21982527426455e-009,5.67429005112896e-005
1.71179459459460e+004	3.26776143479656e-009,5.71637288738106e-005
1.72180450450451e+004	3.31625931705578e-009,5.75863590518670e-005
1.73181441441442e+004	3.36532577552871e-009,5.80108107429180e-005
1.74182432432433e+004	3.41496777707076e-009,5.84371038644608e-005
1.75183423423424e+004	3.46519240298204e-009,5.88652585575328e-005
1.76184414414415e+004	3.51600685112902e-009,5.92952951902758e-005
1.77185405405406e+004	3.56741843811280e-009,5.97272343615647e-005
1.78186396396397e+004	3.61943460148570e-009,6.01610969047026e-005
1.79187387387388e+004	3.67206290201684e-009,6.05969038911821e-005
1.80188378378379e+004	3.72531102600825e-009,6.10346766345163e-005
1.81189369369370e+004	3.77918678766271e-009,6.14744366941391e-005
1.82190360360361e+004	3.83369813150466e-009,6.19162058793781e-005
1.83191351351352e+004	3.88885313485536e-009,6.23600062534999e-005
1.84192342342342e+004	3.94466001036386e-009,6.28058601378311e-005
1.85193333333333e+004	4.00112710859512e-009,6.32537901159554e-005
1.86194324324324e+004	4.05826292067684e-009,6.37038190379891e-005
1.87195315315315e+004	4.11607608100627e-009,6.41559700249372e-005
1.88196306306306e+004	4.17457537001876e-009,6.46102664731302e-005
1.89197297297297e+004	4.23376971701959e-009,6.50667320587457e-005
1.90198288288288e+004	4.29366820308070e-009,6.55253907424150e-005
1.91199279279279e+004	4.35428006400391e-009,6.59862667739174e-005
1.92200270270270e+004	4.41561469335262e-009,6.64493846969635e-005
1.93201261261261e+004	4.47768164555342e-009,6.69147693540709e-005
1.94202252252252e+004	4.54049063906982e-009,6.73824458915329e-005
1.95203243243243e+004	4.60405155964966e-009,6.78524397644826e-005
1.96204234234234e+004	4.66837446364845e-009,6.83247767420558e-005
1.97205225225225e+004	4.73346958143024e-009,6.87994829126536e-005
1.98206216216216e+004	4.79934732084873e-009,6.92765846893075e-005
1.99207207207207e+004	4.86601827080994e-009,6.97561088151493e-005
2.00208198198198e+004	4.93349320491941e-009,7.02380823689886e-005
2.01209189189189e+004	5.00178308521549e-009,7.07225327710001e-005
2.02210180180180e+004	5.07089906599173e-009,7.12094877885225e-005
2.03211171171171e+004	5.14085249771013e-009,7.16989755419739e-005
2.04212162162162e+004	5.21165493100818e-009,7.21910245108832e-005
2.05213153153153e+004	5.28331812080199e-009,7.26856635400433e-005
2.06214144144144e+004	5.35585403048835e-009,7.31829218457872e-005
2.07215135135135e+004	5.42927483624795e-009,7.36828290223902e-005
2.08216126126126e+004	5.50359293145333e-009,7.41854150486013e-005
2.09217117117117e+004	5.57882093118371e-009,7.46907102943078e-005
2.10218108108108e+004	5.65497167684989e-009,7.51987455273343e-005
2.11219099099099e+004	5.73205824093255e-009,7.57095519203812e-005
2.12220090090090e+004	5.81009393183673e-009,7.62231610581053e-005
2.13221081081081e+004	5.88909229886596e-009,7.67396049443460e-005
2.14222072072072e+004	5.96906713731912e-009,7.72589160095003e-005
2.15223063063063e+004	6.05003249371415e-009,7.77811271180510e-005
2.16224054054054e+004	6.13200267114114e-009,7.83062715762512e-005
2.17225045045045e+004	6.21499223474955e-009,7.88343831399695e-005
2.18226036036036e+004	6.29901601737254e-009,7.93654960226986e-005
2.19227027027027e+004	6.38408912529288e-009,7.98996449037338e-005
2.20228018018018e+004	6.47022694415428e-009,8.04368649365224e-005
2.21229009009009e+004	6.55744514502200e-009,8.09771917571910e-005
2.22230000000000e+004	6.64575969059773e-009,8.15206614932539e-005
2.23230990990991e+004	6.73518684159276e-009,8.20673107725071e-005
2.24231981981982e+004	6.82574316326394e-009,8.26171767321127e-005
2.25232972972973e+004	6.91744553211750e-009,8.31702970278794e-005
2.26233963963964e+004	7.01031114278534e-009,8.37267098437417e-005
2.27234954954954e+004	7.10435751507934e-009,8.42864539014461e-005
2.28235945945945e+004	7.19960250122814e-009,8.48495684704469e-005
2.29236936936936e+004	7.29606429330257e-009,8.54160933780182e-005
2.30237927927927e+004	7.39376143083488e-009,8.59860690195873e-005
2.31238918918918e+004	7.49271280863779e-009,8.65595363692956e-005
2.32239909909909e+004	7.59293768482894e-009,8.71365369907928e-005
2.33240900900900e+004	7.69445568906745e-009,8.77171130482690e-005
2.34241891891891e+004	7.79728683100872e-009,8.83013073177341e-005
2.35242882882882e+004	7.90145150898368e-009,8.88891631985477e-005
2.36243873873873e+004	8.00697051891025e-009,8.94807247252079e-005
2.37244864864864e+004	8.11386506344299e-009,9.00760365794051e-005
2.38245855855855e+004	8.22215676136904e-009,9.06751441023485e-005
2.39246846846846e+004	8.33186765725757e-009,9.12780933073720e-005
2.40247837837837e+004	8.44302023137042e-009,9.18849308928266e-005
2.41248828828828e+004	8.55563740984247e-009,9.24957042552683e-005
2.42249819819819e+004	8.66974257513965e-009,9.31104615029476e-005
2.43250810810810e+004	8.78535957680324e-009,9.37292514696106e-005
2.44251801801801e+004	8.90251274249003e-009,9.43521237286189e-005
2.45252792792792e+004	9.02122688931686e-009,9.49791286073969e-005
2.46253783783783e+004	9.14152733551937e-009,9.56103172022166e-005
2.47254774774774e+004	9.26343991243553e-009,9.62457413933282e-005
2.48255765765765e+004	9.38699097682305e-009,9.68854538604455e-005
2.49256756756756e+004	9.51220742352245e-009,9.75295080985975e-005
2.50257747747747e+004	9.63911669847643e-009,9.81779584343553e-005
2.51258738738738e+004	9.76774681211667e-009,9.88308600424444e-005
2.52259729729729e+004	9.89812635313045e-009,9.94882689627537e-005
2.53260720720720e+004	1.00302845026192e-008,1.00150242117753e-004
2.54261711711711e+004	1.01642510486616e-008,1.00816837330330e-004
2.55262702702702e+004	1.03000564012944e-008,1.01488113342055e-004
2.56263693693693e+004	1.04377316079253e-008,1.02164129831894e-004
2.57264684684684e+004	1.05773083691910e-008,1.02844947435377e-004
2.58265675675675e+004	1.07188190552761e-008,1.03530627764229e-004
2.59266666666666e+004	1.08622967227080e-008,1.04221233426492e-004
2.60267657657657e+004	1.10077751316428e-008,1.04916828047140e-004
2.61268648648648e+004	1.11552887636602e-008,1.05617476289202e-004
2.62269639639639e+004	1.13048728400826e-008,1.06323243875413e-004
2.63270630630630e+004	1.14565633408380e-008,1.07034197610411e-004
2.64271621621621e+004	1.16103970238837e-008,1.07750405403480e-004
2.65272612612612e+004	1.17664114452106e-008,1.08471936291877e-004
2.66273603603603e+004	1.19246449794476e-008,1.09198860464741e-004
2.67274594594594e+004	1.20851368410870e-008,1.09931249287616e-004
2.68275585585585e+004	1.22479271063517e-008,1.10669175327598e-004
2.69276576576576e+004	1.24130567357278e-008,1.11412712379122e-004
2.70277567567566e+004	1.25805675971836e-008,1.12161935490419e-004
2.71278558558557e+004	1.27505024901008e-008,1.12916920990658e-004
2.72279549549548e+004	1.29229051699424e-008,1.13677746517785e-004
2.73280540540539e+004	1.30978203736819e-008,1.14444491047096e-004
2.74281531531530e+004	1.32752938460232e-008,1.15217234920557e-004
2.75282522522521e+004	1.34553723664374e-008,1.15996059876890e-004
2.76283513513512e+004	1.36381037770455e-008,1.16781049082463e-004
2.77284504504503e+004	1.38235370113787e-008,1.17572287162994e-004
2.78285495495494e+004	1.40117221240471e-008,1.18369860236102e-004
2.79286486486485e+004	1.42027103213496e-008,1.19173855944733e-004
2.80287477477476e+004	1.43965539928586e-008,1.19984363491480e-004
2.81288468468467e+004	1.45933067440165e-008,1.20801473673834e-004
2.82289459459458e+004	1.47930234297799e-008,1.21625278920394e-004
2.83290450450449e+004	1.49957601893503e-008,1.22455873328062e-004
2.84291441441440e+004	1.52015744820315e-008,1.23293352700258e-004
2.85292432432431e+004	1.54105251242563e-008,1.24137814586188e-004
2.86293423423422e+004	1.56226723278239e-008,1.24989358321197e-004
2.87294414414413e+004	1.58380777393962e-008,1.25848085068243e-004
2.88295405405404e+004	1.60568044812989e-008,1.26714097860533e-004
2.89296396396395e+004	1.62789171936759e-008,1.27587501645348e-004
2.90297387387386e+004	1.65044820780507e-008,1.28468403329110e-004
2.91298378378377e+004	1.67335669423462e-008,1.29356911823720e-004
2.92299369369368e+004	1.69662412474209e-008,1.30253138094218e-004
2.93300360360359e+004	1.72025761551776e-008,1.31157195207803e-004
2.94301351351350e+004	1.74426445783082e-008,1.32069198384260e-004
2.95302342342341e+004	1.76865212317357e-008,1.32989265047848e-004
2.96303333333332e+004	1.79342826858219e-008,1.33917514880688e-004
2.97304324324323e+004	1.81860074214080e-008,1.34854069877707e-004
